!Created with skrf (http://scikit-rf.org).
# GHz S RI R 50.0 
!freq ReS11 ImS11 ReS21 ImS21 ReS12 ImS12 ReS22 ImS22
0.13 -0.1613241148438273 0.1042654277681039 9.123195781219088e-05 -3.353540264117586e-05 3.4767765643144175e-05 3.9002136442012226e-05 0.02608278546524668 0.04862587902832616
0.131 -0.15836838395008512 0.11153560006643432 4.1242901252077826e-05 -0.00010567186307710506 4.577599587283295e-05 4.867793863521699e-05 0.028799649592354308 0.04767262207007915
0.132 -0.1543959686942939 0.119008259730553 8.646080649589684e-05 -4.160395669201335e-06 -3.235912668683967e-05 -8.789774894533904e-05 0.03123262385713844 0.04631789105901796
0.133 -0.1502543215165296 0.12670807687906493 -9.481676392073928e-05 -2.5419932692383506e-05 7.964639389687791e-05 -2.932451368411241e-05 0.03408255271442805 0.045059465727983715
0.134 -0.14591301407296953 0.13440172964367314 -2.976152850591396e-05 1.4480519525590185e-05 -9.02010563134145e-07 -2.8321128732206033e-05 0.03614827118557538 0.04345453199066708
0.135 -0.14131176578057156 0.1409653594570982 4.211788530807606e-05 -0.00014628010214608696 -6.436067807887923e-05 -8.958282603871456e-05 0.039004534684057325 0.042059478693133444
0.136 -0.1358629550185557 0.14822781544655883 -5.86806667577928e-06 1.2806817799146982e-05 -2.1855669133549178e-05 0.00011624115965844365 0.04122155603395865 0.04035667110483585
0.137 -0.1312939512258902 0.15393785881153962 -9.748529699843102e-05 -3.2445661074058425e-06 6.212086904816428e-05 -2.657266640930517e-05 0.04358266177237524 0.03862494580000792
0.138 -0.12542154447417478 0.161346952051018 4.060705025554716e-05 1.736751327709649e-05 -0.0001330151950076247 -0.00010919310553906731 0.045395398383924326 0.036413309583679165
0.139 -0.11895428049771478 0.16741877298802688 9.39105016115036e-06 -5.169163720265572e-05 -2.2330277975878113e-05 1.1990644523458405e-05 0.0478219731639503 0.034241608606431
0.14 -0.11227103136496876 0.1733734844493524 2.054993372342465e-05 -2.0220543280555108e-05 -0.0001115184716499953 -1.5053115351482514e-05 0.0502641299834949 0.032024191285937406
0.141 -0.10477808781824359 0.17932866023187624 -2.8027689811807445e-05 -4.152832544302765e-05 9.737246219479763e-05 2.70770663670246e-05 0.05208083829923324 0.030044036166403096
0.142 -0.09918943627386523 0.18511477549705174 7.226690564001848e-06 -7.771701049925233e-05 -5.3193573235712604e-05 -0.00016818853941420777 0.054270731479533874 0.027326866159960016
0.143 -0.09198833596782902 0.1886693272627684 8.472215387729602e-05 3.56900622459679e-05 5.988109551632408e-05 5.2215326282003376e-05 0.055969499344535455 0.02478218417841209
0.144 -0.08478339002856314 0.19458924525802992 0.0001032565771824263 -3.471167214896539e-05 -1.2544664093995773e-05 -3.647273423999076e-05 0.05722886911761363 0.021791460771094496
0.145 -0.07674369551846971 0.1987487524403183 4.439266229629349e-06 2.788079420337157e-06 3.940553831825613e-05 3.0847596030498636e-05 0.05857011074968168 0.019621708958379672
0.146 -0.06882593574141471 0.20225621408594474 -0.00013320726302799136 -1.764794966081635e-05 4.868761315122475e-05 -3.2016006935710544e-05 0.059799189659589566 0.016264811960831044
0.147 -0.06113572891782693 0.2069086664267343 -4.943227700835536e-05 4.343448244091477e-05 5.46670019826466e-05 1.735123999365092e-05 0.060957603219338956 0.013738699281987645
0.148 -0.05065090195719036 0.21110299365039165 4.6678356215455166e-05 -9.434605536568137e-05 9.317448267994204e-06 4.268892911295506e-05 0.06219982976690987 0.010244731470406086
0.149 -0.04406921672741033 0.21259781337559297 -3.3292839034753986e-05 4.023349016822274e-06 -0.00012928958425218213 -5.6489429330571055e-05 0.0629504575238783 0.00737670562160487
0.15 -0.03544024242807314 0.2179859289049112 7.024323728600923e-05 -1.4252501520344436e-05 -2.6606420312363035e-05 1.959803105380271e-05 0.06341463804928016 0.00413090645909509
0.151 -0.025845565016039608 0.21798609441052194 0.00010485661928143147 -1.7328421573590884e-05 1.7518749001556226e-05 -9.223959155000414e-05 0.06422402947519017 0.001003738189635718
0.152 -0.017025823606232227 0.22036681967950836 6.917924342204256e-05 -5.586423438870296e-05 2.481811948025008e-05 -7.645325366825045e-05 0.06447153909499645 -0.002447391656686544
0.153 -0.007440726838512065 0.22310441170600948 -6.601649266016877e-06 4.1039211830871166e-06 4.301835038749553e-05 0.00012903589918088906 0.0646861047017099 -0.005622085412470493
0.154 0.001656167466171272 0.2249237122729861 -0.00010498338970178891 7.587023325711777e-07 -3.8908656407754073e-05 1.329652104384599e-05 0.06470012274309028 -0.00902610832103597
0.155 0.009813621840251674 0.2244177945024856 -0.0001213828988395861 -8.953740529449023e-06 4.769341204817033e-06 -2.3409382356599553e-05 0.06472921038731327 -0.012238367188862993
0.156 0.019936936745361292 0.22628099899866608 -2.4513159891710014e-05 -0.00011357277279974899 -3.082227614414788e-05 -6.197856849544218e-05 0.06431546364052647 -0.01571640134237709
0.157 0.029474584982504815 0.22554502858336833 -3.5345989812140757e-06 -6.000540955972873e-05 4.48184009097377e-05 9.54330311704786e-05 0.06372457340090881 -0.018923345618728576
0.158 0.040493180319582205 0.22393022070843444 0.0001101336915006675 9.164169134504886e-05 -6.083578928635081e-05 0.00018688641582516546 0.06320550460236542 -0.022311949538192977
0.159 0.04859824251226734 0.2244201905115434 -5.960532933719966e-06 -3.6705303934487397e-06 2.7555241476678134e-05 6.736708693523998e-05 0.06228944984564855 -0.025649517964837703
0.16 0.05729608885309958 0.22419389716185079 -2.7214745894578033e-05 5.7147115442369856e-05 -6.11694568930188e-05 -0.0001412855578505875 0.06147625846245712 -0.028724275164103925
0.161 0.06790165928200467 0.22155596429292948 -2.469030028375828e-05 -8.943272447337008e-05 -2.5229887239798685e-05 3.2488654496065334e-05 0.059873495336917715 -0.03219749689518097
0.162 0.07659576470811369 0.21986619467283644 4.9101922450226985e-05 -9.276644965065024e-05 -6.235102516018555e-05 1.2942425271143361e-05 0.0585868534654754 -0.03548036781044069
0.163 0.0857728760574135 0.21731253547123255 -6.480599269123434e-05 -0.00011360260262080469 9.319439076201139e-05 9.414593433278516e-05 0.05715374889890007 -0.038440236949047066
0.164 0.09684066267702965 0.2151741409656662 7.308459561852783e-05 -4.494923745869253e-05 -0.0001061935578188409 -5.526246467830417e-05 0.05537393654792878 -0.0415499582991935
0.165 0.10532892852403031 0.21258026106245573 5.594815877805949e-05 -1.5037777288228377e-05 3.969577228224646e-05 1.5389347782484653e-05 0.05352299844374899 -0.044727997955852784
0.166 0.11313986442536217 0.20903996573881445 -3.0304303700425482e-06 5.536807667182756e-05 5.763207394783995e-06 -1.0869389126662511e-05 0.051508498901600364 -0.047344405357869934
0.167 0.12417759260638696 0.20440260591479897 -0.00014181798806749246 2.682482700651932e-05 -7.55091786094019e-05 -6.776538043679113e-05 0.049205167972502524 -0.05029054084178601
0.168 0.13334268118678763 0.20148866059919052 0.00010336685892155926 -5.077354464214133e-05 -6.427489103734716e-07 -1.4188583985461218e-05 0.04672470407078605 -0.05351806193914652
0.169 0.14062881666703464 0.19627554782799467 7.138835952922002e-05 -8.674550124070481e-05 -5.487151896205448e-05 -6.151210140199009e-05 0.04439937145015159 -0.05569674760803778
0.17 0.15094830486428584 0.19220367322707757 9.879348885402941e-05 -7.010350519190306e-05 5.539943058014042e-05 -0.00011616770307314315 0.041567546220408376 -0.058141292515452615
0.171 0.1579205232989148 0.18547655083598955 0.00010931456437199565 -9.638832324311645e-05 0.00012278994050072138 -0.00012104440375275801 0.03885037006419115 -0.060535640838272994
0.172 0.16756133395476105 0.18074698461490032 -2.0377979894120586e-05 0.00010154220346095532 -0.00012428328729916706 6.922403066368722e-05 0.036069575603339926 -0.0626863596891627
0.173 0.17447834729384415 0.17459734183192813 1.4695928741387091e-06 -5.626808584478831e-05 3.7696870932700924e-05 -4.200751105279562e-05 0.03284946885943375 -0.06488573422216498
0.174 0.18301393316793974 0.16834521334012437 1.6606303250857222e-05 -8.848807059263413e-05 0.00010160176657488002 -1.1933621067839017e-05 0.029560378514632 -0.06698276800855053
0.175 0.1902694053052505 0.16078566674109493 -7.49224839385989e-05 -7.856473915784908e-05 -4.491232242223838e-05 2.3582621299110818e-05 0.026530092325480602 -0.06834613786878264
0.176 0.19836372925734377 0.15405521649490472 6.304525318197342e-05 6.374109437357383e-05 -0.00011664754897506866 3.707632014239567e-05 0.02302622446514649 -0.07021531332533229
0.177 0.20525278740355649 0.14654266973068716 2.703072237197981e-05 -4.085712063551304e-05 5.928845731632501e-05 -5.233161923030391e-05 0.01959937200593743 -0.07177395568147014
0.178 0.21202163674521468 0.1400847437419225 6.006936297825005e-05 2.8909684291188116e-05 -2.737364702269158e-05 2.127864855105091e-05 0.016170289594474307 -0.07256477443750586
0.179 0.21863288128658445 0.13036065005636407 -6.6344413661554465e-06 4.1005143854061895e-06 -2.9660781947056537e-05 -4.073734900565e-06 0.012636034235284562 -0.07365773317138324
0.18 0.2253841014578171 0.12270704578519923 -4.057700935484525e-05 1.6086058544564218e-05 -9.35368379415244e-05 -7.831301215708569e-05 0.009092260016782698 -0.07472429214104147
0.181 0.23133466042088488 0.11286850235457013 0.00010997465035733049 3.4442147303566866e-05 -2.1049961743372937e-05 2.461913583335994e-05 0.005106199156112829 -0.07553790933108243
0.182 0.23713683405217356 0.10472405389146065 -3.844432697918838e-05 -7.184894559968747e-06 -3.5607015970615936e-05 7.244329274838201e-06 0.0015671918623368938 -0.07585432612281877
0.183 0.24216393170344877 0.09520977386297069 -2.469527683549039e-05 0.00014894519279493352 -2.304519431723195e-05 5.7489746172884045e-05 -0.0024810230417261943 -0.07610474204489477
0.184 0.24677632829978108 0.08550389952837746 0.00015446360577092098 6.088132999018499e-05 -5.5394389099427054e-05 5.8214327399439274e-05 -0.006140643203326455 -0.07642530209310047
0.185 0.2527470207357003 0.07617628796675593 -4.393585190903979e-05 -5.158453608845834e-05 -1.8558869606432776e-05 -6.960420098458757e-05 -0.009760419837102682 -0.07585550071646945
0.186 0.2571436792487366 0.0658523165481832 6.352885203835829e-05 6.298320645610403e-06 -0.00015112717797473706 1.480150562893968e-05 -0.013965731659674865 -0.0758428105510778
0.187 0.2604433948018135 0.05559793734650122 3.662194323746562e-05 -9.243386441385381e-05 3.655205612359657e-05 2.1119956091682603e-05 -0.018113309235818536 -0.0751763632277868
0.188 0.26385824118582946 0.045281264592836386 -4.559810517999537e-06 -0.00017643043930657372 -7.236961158815363e-05 1.1447689678399084e-06 -0.021419886376269435 -0.0750281062141435
0.189 0.26732002637768776 0.03445429180805832 -5.9654984843646354e-05 2.1070028692207826e-05 -1.4415924677231076e-05 1.2291979888112615e-05 -0.02529936911750484 -0.07385069078473457
0.19 0.2698821011788516 0.023514289403989343 7.041980043164313e-05 3.473764810307619e-05 -0.00011322981158419759 -4.128223347838755e-05 -0.02951162288869746 -0.0729006942882886
0.191 0.2716180032148459 0.011242837904285125 -3.9437338372378127e-05 -6.546277285863041e-05 6.873152544563236e-05 -3.872575480142499e-05 -0.03309173899940435 -0.0714226101746535
0.192 0.27340563469548235 0.000858460130665147 -3.765449466865768e-05 -6.46786409919317e-05 -4.819484659170503e-05 2.9597152363602212e-05 -0.036138196196631736 -0.07016664374290425
0.193 0.2748304503889124 -0.010327239197819816 2.600222720587076e-05 4.084296729310933e-05 -6.115459432722173e-05 -4.821361357400759e-06 -0.04014413902455433 -0.06857819508157768
0.194 0.2760104237209159 -0.022382942904377843 -2.1629264002040334e-05 -2.1417954763833917e-05 -0.00010114652658664099 -0.00023340395452077162 -0.04417230154025498 -0.06715407329240888
0.195 0.2761948250962819 -0.03395785696957635 -8.608094059708762e-05 -6.28828393547554e-05 6.936665936983869e-05 -8.445304873843108e-05 -0.04735584228380099 -0.06484444153503051
0.196 0.2756277945307406 -0.046242603353755136 4.0431028135503394e-05 -5.729141418176045e-05 8.470020655718933e-05 -8.434813147310083e-06 -0.050681406778615226 -0.062446920238554686
0.197 0.27566440830460776 -0.05751721694394713 -4.653691573163434e-05 0.00011013479189745286 -5.6703024787485394e-05 2.0962382753362267e-06 -0.05387127649181313 -0.0605568291047975
0.198 0.2737386428431751 -0.06993810514019783 -0.00010629084893089028 0.00016394259020445793 -2.094516830504879e-05 8.638623289887575e-05 -0.056949539430071076 -0.05814226612682194
0.199 0.27273672310532354 -0.08128407739469687 2.8000246439279122e-05 -4.814471876803167e-05 -3.5999789117064504e-05 3.879551393295863e-05 -0.05962754705879602 -0.05442954370436906
0.2 0.26977641080714315 -0.09406571557975664 -3.32480895093771e-05 -2.8838509239023678e-05 -5.6146714315474576e-05 -2.9383994280684637e-05 -0.06275325041487388 -0.052641649664949657
0.201 0.26797156029768526 -0.10609004966948633 -4.94604063808016e-05 -9.574448311826891e-05 -5.451516459884323e-05 -7.694779900422397e-05 -0.06559674453989635 -0.0491228732420216
0.202 0.2634822716307864 -0.11732062769974451 0.0001455937529399564 0.00011361449445032265 1.2243486847483178e-05 -6.573474543389006e-05 -0.0687944404015654 -0.046443391575893764
0.203 0.25924263333160974 -0.12876296841931434 9.277537372641632e-05 1.4535364172280062e-05 -6.662112912634696e-05 -6.92144833291058e-05 -0.07070898206587216 -0.042762287257170926
0.204 0.25432290174403827 -0.14070161172981224 -5.649913019876864e-05 -3.4654510096396916e-05 -3.0112797078216448e-05 1.1776452629247648e-05 -0.07293758833377059 -0.03939608738285894
0.205 0.2502342674673042 -0.15238910981829087 -6.106166595127067e-05 3.617023083661595e-05 -3.846384045998478e-05 -1.9264105017947246e-06 -0.07544715127803908 -0.03665805461790703
0.206 0.24470935699331908 -0.16408936979412683 5.395410300348494e-05 2.5571300245348196e-05 -4.59751478435879e-05 5.723586834305867e-05 -0.0774522992088815 -0.03268975578089977
0.207 0.23834120412469834 -0.17429719696145415 1.4757200714854382e-05 -2.368827050602851e-05 -4.7783448119070415e-05 4.63458287766969e-05 -0.07934750134501038 -0.028953666296319583
0.208 0.2321406853272355 -0.18507978814456735 5.934005513196216e-05 -7.833499508304144e-05 -4.061783792383657e-05 -1.3818788141148159e-05 -0.08076567039747846 -0.025162953869329707
0.209 0.22351436476951386 -0.19557246359313668 -2.894985914305864e-05 3.149824788747668e-05 -2.6316645109480846e-05 -0.00012921516056632043 -0.08248331297808863 -0.021439661798389412
0.21 0.21612807306507606 -0.20581317274916874 4.0901071358016854e-05 3.3394333624155285e-05 2.5643578818472354e-05 -0.00013968869001114963 -0.083309162333146 -0.01724539023362794
0.211 0.20650803387840147 -0.21611896187169602 -2.463001017143253e-05 -9.675966447029431e-05 -9.315736771281907e-05 2.788487152293685e-05 -0.08496661103565283 -0.012982748267098127
0.212 0.2001168947755388 -0.2259580851375674 3.8852955410119434e-05 8.834907208740375e-05 1.3440868981255224e-05 6.479670935175001e-05 -0.08530666237989747 -0.00929551616826116
0.213 0.18914744273078923 -0.23478615376921488 4.479002897450864e-05 -1.3825688525896578e-05 5.449194940105943e-05 -1.2673918456819153e-05 -0.0860750500376698 -0.004581618667092431
0.214 0.18023395281938204 -0.2447916760146973 4.1817626547711137e-05 -3.1668571094410446e-05 -5.772735232721253e-05 -7.106912312947857e-05 -0.08681243906455191 -0.0006510587613871709
0.215 0.17103315430282467 -0.25198902103761117 3.697111749816448e-05 6.466064953780056e-06 -7.215655570532744e-05 -7.392946858416579e-05 -0.08704658273713611 0.003931353930260098
0.216 0.16030831612780155 -0.2617395678683046 -1.1080078833392434e-05 9.173913289695432e-05 7.781593367012467e-05 1.848778042237456e-05 -0.08659058381773889 0.007623286059414069
0.217 0.14965675303885959 -0.26849660468782266 -3.867480958396711e-05 9.903213458748228e-05 -6.700673051451429e-05 2.2430298376452588e-05 -0.08676539803594707 0.012423390484134331
0.218 0.1380609746181121 -0.2764825023749092 4.681811012302364e-05 -0.00011010866254547135 -9.205664433543897e-06 -5.835399373695115e-05 -0.08650313490290402 0.01690020689797782
0.219 0.12496196599057045 -0.2832116493609557 1.018344331466494e-05 -5.070762173051624e-05 6.678141231144464e-06 -4.233221994891449e-05 -0.08628102876397806 0.021362384407158985
0.22 0.113892566204825 -0.28780882861981893 6.283954563284705e-05 -9.242762531699293e-05 7.159461672539455e-05 -4.616169174389112e-05 -0.08544324617094584 0.025677385499681286
0.221 0.10452149347679579 -0.2938220122825125 -5.065035808363771e-05 2.6437170876969395e-05 -9.201938560049296e-06 4.692976958289914e-05 -0.08443531817249898 0.029990842778807227
0.222 0.09049136385477997 -0.29919099686368944 8.418334330468137e-05 2.8784242348617653e-06 2.9970372738272575e-05 0.0001233160306979092 -0.08322565668341357 0.03448649165798892
0.223 0.07800581248421085 -0.30427759378432856 2.4918809868893195e-05 -3.379615701531629e-05 -3.5266648883991424e-05 8.287871123909483e-05 -0.08173992128677797 0.038701027767100556
0.224 0.06608811389266747 -0.3083350457531114 0.00011106430410100424 2.9342495969631537e-06 -5.753139307107644e-05 3.849597081915169e-06 -0.08011696154073795 0.042992099882451056
0.225 0.05007805856320763 -0.3128662997533108 7.689657570184777e-05 -2.6477253252955183e-06 6.158372799857507e-05 0.000124270149425192 -0.07819083578803139 0.046909269574099355
0.226 0.03751140535194004 -0.3145436161757577 -6.181935933397052e-05 -6.2804974312979e-05 -2.4415982590598915e-05 1.119398943970015e-06 -0.07613311362915644 0.0510208151041349
0.227 0.024079858275364054 -0.31672817243670726 3.468516837205926e-05 -3.4809682555532272e-06 -3.561579266340553e-05 -5.2663062927445766e-05 -0.0738013104483455 0.05506304351189233
0.228 0.01040485951951232 -0.319166382749473 -2.3008602907258336e-05 -4.6314054303074716e-05 -3.444735251370079e-06 -2.3644399067805025e-05 -0.07141205128412495 0.05891663112822498
0.229 -0.002039451447240708 -0.3182307696194054 -0.00012588582962598443 -1.1705776267711726e-05 7.079156460529447e-07 -4.553803439278777e-05 -0.06865218861799441 0.06256457696836891
0.23 -0.0153030495907376 -0.31904543605903113 1.04811057915928e-05 7.999114804780954e-05 1.906220094674612e-05 -6.725586702582008e-05 -0.06567761553584577 0.06618104217158145
0.231 -0.02837582249850873 -0.32006418924821267 -4.376955881553662e-05 -1.8354099268965092e-05 1.1592827958524161e-05 -3.756094401848774e-05 -0.06241561838782674 0.069911601088012
0.232 -0.04362264886422638 -0.3180982589170927 -8.009617812896617e-05 6.586127499687026e-05 3.493010757475209e-05 -8.283920957898496e-05 -0.059481824030533995 0.07286292815855043
0.233 -0.056113970779691706 -0.31951179338938906 -3.182283634082968e-05 4.9957715307879875e-06 1.1262358534617653e-09 -3.5254885487811815e-10 -0.05589199236790108 0.0762815759960391
0.234 -0.07027757748912963 -0.31466580066134253 -1.358919251952545e-05 8.996219965248143e-05 8.24874231476491e-06 -6.10466279038472e-05 -0.052284296209003635 0.07925096562369788
0.235 -0.08301358494718479 -0.3146106476171191 -2.1541568203851574e-05 -6.195686615616155e-05 -2.2384464943836183e-05 5.7818133205799826e-05 -0.048498077658988975 0.0823719186854176
0.236 -0.0970415745315483 -0.31260019625975266 -6.848391891904638e-05 -2.4472341984357193e-05 -5.628696157110268e-05 -4.393912652480025e-05 -0.04447588457733848 0.08446486481946064
0.237 -0.10915242447472405 -0.3071716557428242 -4.934728183312491e-05 1.087651167380243e-05 6.25087375453469e-06 3.245337398156042e-06 -0.04020048612898109 0.08759396507605792
0.238 -0.12343408567944923 -0.3033642553657527 2.8556926328953582e-05 -3.974803000664072e-05 -5.211012468525247e-05 -5.252387705548792e-05 -0.03588946530639806 0.08993983891208011
0.239 -0.13629404922785576 -0.29826131256712485 1.1334358785743455e-06 2.5134135916455696e-05 -1.5771742070441836e-06 -0.00010372989475284627 -0.03139508283533923 0.09121834441083197
