!Created with skrf (http://scikit-rf.org).
# GHz S RI R 50.0 
!freq ReS11 ImS11 ReS21 ImS21 ReS12 ImS12 ReS22 ImS22
0.13 -0.004131973171914708 -0.0007967444123702244 1.7413297697963803 -4.481439632897087 0.0005224702930095753 -0.0019643422283617336 -0.0007878801934755428 0.0002340820560877646
0.131 -0.004339215988438789 -0.0006032015226913741 1.5105909057626197 -4.552815050169759 0.0005250024079405787 -0.0022446912363825577 -0.0008288089063091752 0.0005230974901611971
0.132 -0.004508146900292888 -0.0003783120581614376 1.233524976803459 -4.665870883194588 0.0003550776683667244 -0.002157996397162966 -0.0008326788910055007 0.0007053046223485123
0.133 -0.004623998119203726 -0.0001595797929814019 0.9645102148030109 -4.711118965155873 0.00024358620150410781 -0.0022368515371683564 -0.0007016384172775741 0.0005417378482851766
0.134 -0.004816240797335639 0.00011954630159582371 0.6739574781465201 -4.755458331139671 0.00018463340129956955 -0.002290089864376298 -0.0005544697440067819 0.0007251548406999778
0.135 -0.004824667609723061 0.0005237272569742588 0.4361813606883 -4.786318645046705 0.00014695337228941676 -0.002277764732223096 -0.0005257738667002482 0.0007788044264231745
0.136 -0.005106760758684211 0.0007432891573608837 0.16438950262209057 -4.772804574469167 8.891232952765781e-05 -0.002422966941440108 -0.00055577504865698 0.0008257907805073893
0.137 -0.005323606611423487 0.0010174884098673057 -0.1165709919073624 -4.815483789717487 5.218190584625111e-05 -0.002406508293761737 -0.00037243866788331213 0.0008810824643235624
0.138 -0.0052523618730796195 0.0013989259174079078 -0.3699419400622498 -4.754427959713908 -0.00013610775435180693 -0.002321428966031483 -0.00032351664669788164 0.0009614403611503139
0.139 -0.005338938207984418 0.0016929699907832097 -0.661501703542833 -4.763369131140432 -0.00021662348646307343 -0.002435846008086364 -0.00016400631827220315 0.0007936458119188044
0.14 -0.005356664782167495 0.0019894656574868277 -0.8949748051926679 -4.694752253043297 -0.00035861354524459267 -0.0024509533193147167 4.251737307797325e-05 0.000925995850588102
0.141 -0.0052780342081102894 0.002299234580194684 -1.1842988413151352 -4.644601820319293 -0.00031771654074503426 -0.002593440315848706 7.012118769164955e-05 0.0009401254245848769
0.142 -0.005292420628681817 0.0025678997232503713 -1.4225627360231714 -4.5769929758035275 -0.0004271272084595655 -0.002590367721476091 0.00017683358758948872 0.001017881091587855
0.143 -0.005316808646594795 0.002936738893204309 -1.6652541626880422 -4.472506229577945 -0.0005221802798390085 -0.0025683906121008898 0.00029394458397150535 0.0009968307875267435
0.144 -0.005266253397916736 0.003316737904395566 -1.967406209262568 -4.392245322255505 -0.0007028702915189212 -0.0025650007323412918 0.00021556246151785928 0.0008917199994903902
0.145 -0.005105607508711155 0.003620827754233712 -2.1827418981895117 -4.248723759655377 -0.0007901259970495375 -0.002624004708015712 0.00039554080905457946 0.0008911775289164584
0.146 -0.005052337412058036 0.003972897987875136 -2.400078286635304 -4.105827883971409 -0.0009464536634074147 -0.0024878773432713574 0.0005009920550715782 0.0007992669858838554
0.147 -0.004982592762596995 0.004286178722849929 -2.6408308516913044 -3.9452914992234547 -0.0009754588995314927 -0.0024684469086318646 0.0004845165918392567 0.0008306841775229094
0.148 -0.004790840269430663 0.004488338026573172 -2.8652123445175546 -3.8136130571061724 -0.0010970822147557695 -0.0026003220219801763 0.0006124259493793808 0.0008267027913913792
0.149 -0.004486703092276417 0.004738339485955736 -3.078846324478022 -3.637885921219885 -0.0012657907244738 -0.0026482075803239357 0.00048036835878824847 0.0007443600239590817
0.15 -0.004313563276190803 0.005074304541806153 -3.2642278180646063 -3.4842282347703533 -0.0013011258747730348 -0.002585332034273418 0.0006480081916670565 0.0007444737625428906
0.151 -0.004127270677185239 0.005327442043271414 -3.438000075340239 -3.282196965803999 -0.0014030017346346713 -0.002408784816133682 0.0008895321259241818 0.0005851124044996491
0.152 -0.0037123705170472765 0.005487660195349509 -3.650039277200366 -3.091695492429667 -0.0016325214786185927 -0.0025194997132223116 0.0006682614243864003 0.0006036053988980177
0.153 -0.0036387210054344473 0.005807300484183924 -3.7873855453355887 -2.886520622249675 -0.001661521577114742 -0.002518484496082347 0.0008679136596001749 0.000538473389960686
0.154 -0.0033178217445844296 0.0059036092792287605 -3.932879775466142 -2.645744525402964 -0.0017609730457108282 -0.00255811967997151 0.0008375031326184584 0.00048494211305888905
0.155 -0.002902120560621275 0.0062514139323208125 -4.102970963676663 -2.435711890206913 -0.0017874923076955755 -0.0024019303956483874 0.0009610401927339684 0.0005871926660702881
0.156 -0.0027305896295166244 0.006238012770635228 -4.2176500687606655 -2.199225640897654 -0.001988242037068289 -0.0023773837547741705 0.0010043962270252697 0.0003017476089267635
0.157 -0.0023498497940973627 0.006415302637976138 -4.321798066118363 -1.953211468774152 -0.0019939982783568886 -0.002291307433977869 0.0009591408033703131 0.00022976798128530174
0.158 -0.00221197309876249 0.006484293762748171 -4.425023653281213 -1.7173254342981024 -0.002174698204264952 -0.0024682031050116283 0.0008750666869560673 0.0002634302443973165
0.159 -0.0017288411461137546 0.00658117536657915 -4.502857760972958 -1.4576386834809238 -0.002186317641205227 -0.0023349456305966814 0.0009470903636832867 8.2355447872656e-05
0.16 -0.0015168073320230408 0.006613197382072499 -4.5883698348127515 -1.2133705710826639 -0.0023597309724726918 -0.00221617709139332 0.0009327778510891217 0.0001844669978856639
0.161 -0.001081256738107744 0.0067375687113651345 -4.642474443502843 -0.9504565806633726 -0.0023643069764706635 -0.0020969402516159787 0.0009211208631895683 0.00011840603924901665
0.162 -0.0007601684924709999 0.006607820067187418 -4.6833309488672095 -0.6966645645589319 -0.002635658757705802 -0.002217711500144067 0.0009122954947836912 8.934303442905428e-05
0.163 -0.0005112697936292663 0.006676677459946326 -4.7152622906981865 -0.42225173014016487 -0.002634112812237784 -0.0021859119929553785 0.000895666718828674 -3.9635258344428426e-05
0.164 -0.00037321096684535623 0.006440564177786523 -4.72570225015374 -0.1630897261050666 -0.0027732851279398812 -0.0020183782035546835 0.0009649891378605143 -5.74530605882272e-05
0.165 0.00013638498092184294 0.006536491583327595 -4.730535114032092 0.10451131863941891 -0.002766828982511883 -0.0018454635864493226 0.0008729093309644167 -0.0002399015421085606
0.166 0.0002767040824006798 0.006337565429598925 -4.717691085844645 0.36999584897196314 -0.002901873582095065 -0.0017771820602534997 0.0007636997810928416 -0.00017099552383482994
0.167 0.0005056166987005 0.006336097381863707 -4.697216043130205 0.6353494047613397 -0.003020293672549984 -0.0016409522942955966 0.0008208614530535902 -0.0002695940812887448
0.168 0.0009220105947189709 0.006078571282373858 -4.640234541653258 0.9157669638250442 -0.0031785138070484554 -0.001695609126447785 0.0007612437471631119 -0.00027185059073214356
0.169 0.001070416067418266 0.006003591551100213 -4.574743781496607 1.157853631903106 -0.0032157240808963687 -0.001495248375779749 0.0008007277968088592 -0.00034032375386814425
0.17 0.0011663198262314072 0.005880245417656976 -4.504504816134396 1.423641973895026 -0.003325221313179673 -0.00142486966843756 0.0006859752400408662 -0.000482908407753321
0.171 0.0014116273099910022 0.005837754146979534 -4.422255113569649 1.6692395658993022 -0.0033627214891439124 -0.0013982597824741168 0.00076840838008418 -0.0003849475253942489
0.172 0.0015409944959014123 0.005466807513371495 -4.320323875135432 1.9164777191765 -0.0034516682562638016 -0.0012238890686202958 0.000737266684258617 -0.00040849291601171704
0.173 0.0016329380044924114 0.005251333762049957 -4.207377754958028 2.163313860404486 -0.003665488165712872 -0.001123385368228603 0.0007506749988723501 -0.00043529809793551227
0.174 0.0017382647828063735 0.005224703137451878 -4.069860049354786 2.3861318878566666 -0.0035906267372667025 -0.0011423557395471415 0.0006496477102827284 -0.0003990190524239345
0.175 0.0018119648324529908 0.004916706342394484 -3.9352562515788185 2.6162799328641384 -0.0037083673224815304 -0.0008136412986297293 0.0007163793376602997 -0.00037500549853460686
0.176 0.001992366061839101 0.004711571939853463 -3.786356814906097 2.822584653447655 -0.0036534736506137365 -0.0007672025614327297 0.0006752097046061687 -0.00043522114811721897
0.177 0.002091073831463025 0.004633573361748102 -3.6188189613870176 3.0340279259554324 -0.003967955845325553 -0.0006751371354139446 0.0007187591991000774 -0.00041577658230869104
0.178 0.0019884157769385663 0.004467694342078056 -3.4421438507635975 3.2345086576244357 -0.003976818064010765 -0.0005070172560251004 0.0006388003248888497 -0.0005158137124198469
0.179 0.0020766387918115265 0.0042911037752517795 -3.2561471666242863 3.4125765030683777 -0.00401765259165642 -0.00046552446543139214 0.0008153042445357112 -0.0004690315558342634
0.18 0.0020630002100094236 0.004215543961153123 -3.060147338943947 3.5938734584167142 -0.004030586298976631 -0.00033270247217132053 0.000712508147087189 -0.0003977644025931234
0.181 0.0020016135445076067 0.004064807318478569 -2.8607440994559705 3.749320888301914 -0.003960923206125678 -0.00011236825152353864 0.0006575117191721643 -0.0004979349222571176
0.182 0.002026976833195315 0.0038840830888996246 -2.649635402347323 3.8966481963228303 -0.004030114327783597 -3.0224254389908868e-05 0.0007216029395503969 -0.0006120230039791895
0.183 0.0020051190374080156 0.003783517118110656 -2.420998610511049 4.036695296449824 -0.00420520583226187 0.0001904976190261179 0.0007525539997601274 -0.0005617589603263346
0.184 0.0018595781145756502 0.0035817502480674683 -2.185634108361385 4.172138010318356 -0.004202924216832668 0.00030599317624583727 0.0006146452850749532 -0.0005431575452671664
0.185 0.0017248343933977282 0.003612386904836109 -1.9496340957214882 4.291254782308165 -0.004122429860300165 0.0004264661796131023 0.0007836045724002473 -0.0005829845927416814
0.186 0.0016257800029814446 0.0034989446148144527 -1.7182739764994865 4.374332031438095 -0.004155667531938841 0.0006651651590399561 0.0009003570020371916 -0.0005924086427800984
0.187 0.001644350574213171 0.0034803699535893256 -1.448624242777802 4.47292924470142 -0.004294293148437969 0.0008110512502677364 0.0007257004305076548 -0.0007349117065530745
0.188 0.001435319028546177 0.0034691798290029407 -1.2012166503169 4.561277377995249 -0.004209584762560964 0.0009398689261040298 0.0008052734906178364 -0.0007225900417157428
0.189 0.0014864161464927376 0.0035024408783223613 -0.9401244663655884 4.592007565214379 -0.004324331536223594 0.0010813089476607374 0.0009129503395932021 -0.0007017683651994623
0.19 0.0012944034114511346 0.003475758031893382 -0.6836077869178677 4.65441176607484 -0.00426067400628928 0.0013561706668806465 0.000800981241707346 -0.0006359709819704138
0.191 0.0012977306550397089 0.0035147008723228376 -0.39932357822580755 4.693247549178231 -0.004299937802978707 0.001382887669042323 0.0007724685837778042 -0.000831889167002421
0.192 0.00106137997581247 0.003631290626454092 -0.15751350710278914 4.6750816440076015 -0.004342154021029571 0.0016066154079208952 0.0009502654670361117 -0.0008055162345946154
0.193 0.001054654573750494 0.0037268762823670603 0.10471502204558232 4.681934599670755 -0.004332893535208859 0.0016979061011191377 0.0007448929819851741 -0.00103330951865682
0.194 0.0010507162875505408 0.003906408442594148 0.3602189283586865 4.65821205913241 -0.0042148396005720476 0.00199909973071685 0.0007806044325207254 -0.001111992582777341
0.195 0.0008885518052816138 0.003914434020025132 0.6262119487507639 4.660756451883914 -0.004307351869542752 0.0021037448050782934 0.0008315345267221555 -0.0013045607007628683
0.196 0.0010124221433435569 0.004059424385391764 0.8767945772670415 4.5823985711147 -0.004128754096781797 0.0021471472059409065 0.0007681813665160696 -0.0011608533609530228
0.197 0.0009513672075940672 0.004180597613095728 1.1306510514576653 4.554631412352925 -0.004122823052492414 0.0023900671468725446 0.0007598480701554406 -0.0013369589535351554
0.198 0.0008806135081893741 0.004384942821819877 1.376872827254513 4.469739196765649 -0.004045368006294035 0.0025686615773614246 0.0008069458029944569 -0.001308790885102166
0.199 0.0008264974336930583 0.004512586537527744 1.6131512911743031 4.3579924024392085 -0.003994344934206042 0.0027725894966839837 0.0007548509975624354 -0.0015133508728919383
0.2 0.0009100753474509797 0.004670031695604333 1.883844815841818 4.263216147632982 -0.00391716350843083 0.002933412745443302 0.0007254587816534268 -0.0014461457044864763
0.201 0.001037059447286873 0.004968861921371957 2.0959042167261432 4.168799266821768 -0.003860313427017813 0.003178662199032396 0.0006822068227801276 -0.0015956721592167566
0.202 0.0012168968622975665 0.004995167496119369 2.3405717506408723 4.049206236984847 -0.003888322763779214 0.003281709167005168 0.0005191575666171099 -0.0014850124032169845
0.203 0.0012566410057882054 0.005275464980831604 2.5667204276328803 3.8969124248131064 -0.0037497281838696434 0.0033339219298418074 0.0004220841800887731 -0.0017444787350383967
0.204 0.001427723114118353 0.005378171070450806 2.7789476251490424 3.7339258378834876 -0.003717652731714826 0.003497218479372668 0.0003207420101744089 -0.0018944554440119856
0.205 0.0016243015341189805 0.005727935500081945 2.985404225616179 3.583094095738539 -0.0035816235495476465 0.0037690940226019266 0.00027678296478759 -0.0018925808847353907
0.206 0.0018226083022944207 0.005657935222698695 3.1753422177234834 3.4212358628583193 -0.003495563975647385 0.00386416631905731 0.00018144356667775037 -0.0019130685710703743
0.207 0.0020887316369136147 0.005815106218500386 3.361050290486412 3.231587512181776 -0.0031604848777514382 0.0039203307965357944 1.3350330266966701e-05 -0.002105551357616701
0.208 0.002300321501285735 0.005935623460294965 3.524972679693784 3.044856237580389 -0.0033403311591247153 0.0042087873142638435 -3.770023787694375e-05 -0.002010588080720081
0.209 0.0026791734675007057 0.006174335605528636 3.6844756742693496 2.8373882305397182 -0.0031840598049613545 0.004214021645699463 -0.000133871571935357 -0.0021408704530926884
0.21 0.003015548996265091 0.006258421267675646 3.8513698536670273 2.6298050771976413 -0.003011557879969012 0.004350002259895657 -0.0004174819085327592 -0.0021891654955362464
0.211 0.003268703421793875 0.00633649433357506 3.985042047141594 2.433263247510895 -0.0028360407561465314 0.0045289890583613875 -0.00042590278640548037 -0.002189485936706215
0.212 0.003509397906928915 0.0063443759967593775 4.098706556399408 2.17779780561067 -0.0027096319078866405 0.004660143608385462 -0.000586920655389195 -0.0022348494472912064
0.213 0.00391395008712617 0.006362132255692868 4.218838859533968 1.957568205168678 -0.0025294488671673376 0.0048005408431627 -0.0007476674060655453 -0.0022725811212982645
0.214 0.004300952039948078 0.006456822481709034 4.3275356682004364 1.717796729239909 -0.002537324844102764 0.005018627669885396 -0.0008679077887889866 -0.002259595616150279
0.215 0.00475774046268201 0.006356459407648704 4.404673652304132 1.4546913007967668 -0.0022373044191291887 0.005140655055738747 -0.0010771300462841422 -0.0023025314118259184
0.216 0.0049463322139633335 0.006364937148781744 4.481120342358533 1.2183710573530813 -0.002145623410822956 0.005248686034775793 -0.0010587292375134252 -0.0021069092461683016
0.217 0.005397875571777782 0.006229246454577415 4.531882323325646 0.9804097990789914 -0.0018588525218845612 0.005433373410018138 -0.0013822083130578058 -0.0020982205005729373
0.218 0.005836890175665964 0.006142406528029735 4.586638805201152 0.7105935464223523 -0.001649842270842143 0.00551040118217865 -0.0015418068685176698 -0.0020697291922949744
0.219 0.006145923105105321 0.005906369446639347 4.632371093440455 0.4562487298641119 -0.0015081852548157954 0.005659480420929525 -0.0017149423344659386 -0.002054575161208544
0.22 0.006510945057323804 0.005777433739813247 4.63146733414195 0.19326788496280617 -0.0013867379507515798 0.005702480552061568 -0.001755234672015217 -0.0019965137583994852
0.221 0.006996998610512222 0.005450156621678922 4.644983234588299 -0.06981107642891027 -0.0013189870789622814 0.005757917658119059 -0.001995277135078849 -0.0018378668947168883
0.222 0.007311690427261903 0.005171878006108948 4.638311786863823 -0.31756059312724594 -0.0009641547911171499 0.005844758001839283 -0.002114177546813272 -0.0017001271878004855
0.223 0.007601240389947279 0.0049891508618663235 4.6131855066946805 -0.5870710739851126 -0.0008083585516615722 0.005936677194890641 -0.00220961687365163 -0.0015557370914057564
0.224 0.007849508931702158 0.004526922686715384 4.566229318018546 -0.8479107084915708 -0.0005743978781757187 0.006047449541594823 -0.0023210055141529074 -0.0013688824301285177
0.225 0.008335931755727064 0.004237709754478119 4.499920473181776 -1.0923887512535733 -0.0003246337817832658 0.006138329454180766 -0.0024910391122192534 -0.0013485683567169618
0.226 0.008531947180253666 0.0038161055733672493 4.446496396670618 -1.3476713656972417 -0.0001314373108188818 0.006138825156778717 -0.002459966367405277 -0.0012172939598283754
0.227 0.008740056798543908 0.0034751923745095156 4.376096628531009 -1.5893066033769225 0.0001511177680446647 0.006242592178812935 -0.0025946842933843623 -0.0009757622743279111
0.228 0.009002203457623611 0.0029533484361253565 4.263396289396551 -1.833335337565155 0.00032979930245028566 0.0062684145016482585 -0.0026372598526235884 -0.0008169200099558503
0.229 0.009185035497658502 0.0025695882719953835 4.15688408266569 -2.0760856847441933 0.0005568515022240266 0.006242282630894258 -0.0027199923054399898 -0.0006002845841169673
0.23 0.009283188176163377 0.0019403993958256372 4.0307209326397375 -2.2918223163634233 0.0007148371331920387 0.006316155246620509 -0.0027595153405841674 -0.00043166598513902333
0.231 0.0093419418225755 0.001586557667699693 3.902416236101636 -2.509930408746386 0.000817179964768737 0.00639916354407689 -0.002802423571362341 -0.00034215509913204406
0.232 0.009404046506233733 0.0010951678866006737 3.7474093665951975 -2.7355549094746334 0.0012258981546422 0.006390397467281426 -0.0027995014214230772 -0.0001773560821395991
0.233 0.009501444640457575 0.0004763543239426568 3.5937284822537596 -2.930279926026086 0.0014848516841011218 0.006311725775709275 -0.0028947934910823485 0.0002147234241102468
0.234 0.009461301652959784 0.0001412899146899956 3.4194731156294664 -3.1260866025634546 0.0016595404642751625 0.006391792728312352 -0.0028509349214449857 0.00034216148364748795
0.235 0.009346118483665072 -0.0004506227180469814 3.2479577364157075 -3.3114622736000703 0.0019324829030104712 0.006320866763487633 -0.0027644597942271783 0.00040044273235276804
0.236 0.009352865948144773 -0.0010431441685260824 3.050430926814553 -3.4819397610752683 0.002267588797686192 0.006359347236033249 -0.002664044994690608 0.0007017729595864708
0.237 0.00918962058680253 -0.0014485896688484785 2.8521197300450387 -3.6508032959396846 0.0024076996141039384 0.0062391927872501775 -0.002690120512033814 0.0008570721915215437
0.238 0.008994499256503988 -0.0020595151630920564 2.6428164993848204 -3.802680567915843 0.0025969536548455237 0.006274439875701441 -0.0025402252130713975 0.0009430456865731177
0.239 0.008643519048900644 -0.002430887171827502 2.4216283873128948 -3.9294543632901378 0.0027862232424152584 0.006215714825112502 -0.0025568278808000395 0.0011859078618268915
0.24 0.008527435712747621 -0.0028459692490766645 2.198498458823486 -4.071277409793887 0.0029618708146661667 0.006206424141706489 -0.0023674415790874885 0.001304287855282009
0.241 0.00822996201874924 -0.0033958220607923557 1.9730657830138207 -4.185716830386049 0.003361289389538345 0.006057107507649547 -0.0023177547893331696 0.0014303396615061232
